time	V(a1)	V(b1)	V(cin)	V(cout)	V(s)
0.000000000000000e+000	0.000000e+000	0.000000e+000	0.000000e+000	2.219405e-008	4.407206e-008
5.000000000000000e-003	0.000000e+000	0.000000e+000	0.000000e+000	2.219405e-008	4.407206e-008
5.002180913591953e-003	0.000000e+000	0.000000e+000	2.180914e-002	2.219405e-008	2.180896e-002
5.006542740775859e-003	0.000000e+000	0.000000e+000	6.542741e-002	2.219405e-008	6.542712e-002
5.015266395143672e-003	0.000000e+000	0.000000e+000	1.526639e-001	2.219405e-008	1.526637e-001
5.032713703879298e-003	0.000000e+000	0.000000e+000	3.271371e-001	2.219405e-008	3.271367e-001
5.067608321350550e-003	0.000000e+000	0.000000e+000	6.760832e-001	2.219405e-008	6.760828e-001
5.106670821350550e-003	0.000000e+000	0.000000e+000	1.066708e+000	2.219405e-008	1.066708e+000
5.145733321350550e-003	0.000000e+000	0.000000e+000	1.457333e+000	2.219405e-008	1.457332e+000
5.184795821350550e-003	0.000000e+000	0.000000e+000	1.847958e+000	2.219405e-008	1.847957e+000
5.262920821350550e-003	0.000000e+000	0.000000e+000	2.629208e+000	2.219405e-008	2.629207e+000
5.380108321350550e-003	0.000000e+000	0.000000e+000	3.801083e+000	2.219405e-008	3.801081e+000
5.500477454724154e-003	0.000000e+000	0.000000e+000	5.000000e+000	2.219405e-008	5.000000e+000
1.000000000000000e-002	0.000000e+000	0.000000e+000	5.000000e+000	2.219405e-008	5.000000e+000
1.000390625000000e-002	0.000000e+000	1.953125e-002	5.000000e+000	2.219405e-008	5.000000e+000
1.001171875000000e-002	0.000000e+000	5.859375e-002	5.000000e+000	2.219405e-008	5.000000e+000
1.002734375000000e-002	0.000000e+000	1.367188e-001	5.000000e+000	2.219405e-008	5.000000e+000
1.005859375000000e-002	0.000000e+000	2.929688e-001	5.000000e+000	2.219405e-008	5.000000e+000
1.009765625000000e-002	0.000000e+000	4.882813e-001	5.000000e+000	2.219405e-008	5.000000e+000
1.013671875000000e-002	0.000000e+000	6.835938e-001	5.000000e+000	2.219405e-008	5.000000e+000
1.017578125000000e-002	0.000000e+000	8.789063e-001	5.000000e+000	2.219405e-008	5.000000e+000
1.021484375000000e-002	0.000000e+000	1.074219e+000	5.000000e+000	2.219405e-008	5.000000e+000
1.025390625000000e-002	0.000000e+000	1.269531e+000	5.000000e+000	2.219405e-008	5.000000e+000
1.029296874999999e-002	0.000000e+000	1.464844e+000	5.000000e+000	2.219406e-008	5.000000e+000
1.033203124999999e-002	0.000000e+000	1.660156e+000	5.000000e+000	2.219416e-008	4.999731e+000
1.036146725505808e-002	0.000000e+000	1.807336e+000	5.000000e+000	2.219577e-008	4.998471e+000
1.036235173507479e-002	0.000000e+000	1.811759e+000	5.000000e+000	2.219573e-008	4.997395e+000
1.036412069510820e-002	0.000000e+000	1.820603e+000	5.000000e+000	2.219557e-008	4.991314e+000
1.036765861517503e-002	0.000000e+000	1.838293e+000	5.000000e+000	2.219764e-008	4.972058e+000
1.037089782888098e-002	0.000000e+000	1.854489e+000	5.000000e+000	2.221207e-008	4.948923e+000
1.037277644079730e-002	0.000000e+000	1.863882e+000	5.000000e+000	2.229546e-008	4.933142e+000
1.037407295099387e-002	0.000000e+000	1.870365e+000	5.000000e+000	2.243900e-008	4.921244e+000
1.037539043429602e-002	0.000000e+000	1.876952e+000	5.000000e+000	2.273296e-008	4.908607e+000
1.037555531796201e-002	0.000000e+000	1.877777e+000	5.000000e+000	2.291324e-008	4.906983e+000
1.037588508529399e-002	0.000000e+000	1.879425e+000	5.000000e+000	2.118701e-008	4.903681e+000
1.037614726249375e-002	0.000000e+000	1.880736e+000	5.000000e+000	1.212829e-008	4.901038e+000
1.037621280679369e-002	0.000000e+000	1.881064e+000	5.000000e+000	-1.345845e-008	4.900374e+000
1.037634389539357e-002	0.000000e+000	1.881719e+000	5.000000e+000	-2.781491e-007	4.899039e+000
1.037641052331155e-002	0.000000e+000	1.882053e+000	5.000000e+000	-1.337327e-006	4.898359e+000
1.037651768919267e-002	0.000000e+000	1.882588e+000	5.000000e+000	-1.152602e-005	4.897262e+000
1.037655932515895e-002	0.000000e+000	1.882797e+000	5.000000e+000	-4.598816e-005	4.896835e+000
1.037658578511419e-002	0.000000e+000	1.882929e+000	5.000000e+000	-1.754816e-004	4.896564e+000
1.037659948289515e-002	0.000000e+000	1.882997e+000	5.000000e+000	-4.261522e-004	4.896423e+000
1.037661145517599e-002	0.000000e+000	1.883057e+000	5.000000e+000	-8.655072e-004	4.896300e+000
1.037661754055093e-002	0.000000e+000	1.883088e+000	5.000000e+000	-1.082214e-003	4.896237e+000
1.037662195041549e-002	0.000000e+000	1.883110e+000	5.000000e+000	-6.763873e-004	4.896192e+000
1.037662648303284e-002	0.000000e+000	1.883132e+000	5.000000e+000	2.019494e-003	4.896145e+000
1.037663125964433e-002	0.000000e+000	1.883156e+000	5.000000e+000	1.490114e-002	4.896096e+000
1.037663988946789e-002	0.000000e+000	1.883199e+000	5.000000e+000	6.212485e-002	4.896008e+000
1.037664061225149e-002	0.000000e+000	1.883203e+000	5.000000e+000	6.980737e-002	4.896000e+000
1.037664205781869e-002	0.000000e+000	1.883210e+000	5.000000e+000	9.779843e-002	4.895985e+000
1.037664494895308e-002	0.000000e+000	1.883225e+000	5.000000e+000	1.976206e-001	4.895956e+000
1.037664709804700e-002	0.000000e+000	1.883235e+000	5.000000e+000	3.258058e-001	4.895933e+000
1.037664737840857e-002	0.000000e+000	1.883237e+000	5.000000e+000	3.578964e-001	4.895930e+000
1.037664793913171e-002	0.000000e+000	1.883240e+000	5.000000e+000	4.770798e-001	4.895925e+000
1.037664851280070e-002	0.000000e+000	1.883243e+000	5.000000e+000	7.053954e-001	4.895919e+000
1.037664865621794e-002	0.000000e+000	1.883243e+000	5.000000e+000	1.000572e+000	4.895917e+000
1.037664894305244e-002	0.000000e+000	1.883245e+000	5.000000e+000	2.237567e+000	4.895914e+000
1.037664895002859e-002	0.000000e+000	1.883245e+000	5.000000e+000	2.304768e+000	4.895914e+000
1.037664896398090e-002	0.000000e+000	1.883245e+000	5.000000e+000	2.502804e+000	4.895914e+000
1.037664897618917e-002	0.000000e+000	1.883245e+000	5.000000e+000	2.673218e+000	4.895914e+000
1.037664897967724e-002	0.000000e+000	1.883245e+000	5.000000e+000	2.718993e+000	4.895914e+000
1.037664898665339e-002	0.000000e+000	1.883245e+000	5.000000e+000	2.793117e+000	4.895914e+000
1.037664900060570e-002	0.000000e+000	1.883245e+000	5.000000e+000	2.888726e+000	4.895914e+000
1.037664902851031e-002	0.000000e+000	1.883245e+000	5.000000e+000	2.999003e+000	4.895913e+000
1.037664908431954e-002	0.000000e+000	1.883245e+000	5.000000e+000	3.134454e+000	4.895913e+000
1.037664919593799e-002	0.000000e+000	1.883246e+000	5.000000e+000	3.316320e+000	4.895912e+000
1.037664941835700e-002	0.000000e+000	1.883247e+000	5.000000e+000	3.571913e+000	4.895909e+000
1.037664976254215e-002	0.000000e+000	1.883249e+000	5.000000e+000	3.855251e+000	4.895905e+000
1.037665043818834e-002	0.000000e+000	1.883252e+000	5.000000e+000	4.237911e+000	4.895898e+000
1.037665178948073e-002	0.000000e+000	1.883259e+000	5.000000e+000	4.767911e+000	4.895885e+000
1.037665222490950e-002	0.000000e+000	1.883261e+000	5.000000e+000	4.876071e+000	4.895880e+000
1.037665260053129e-002	0.000000e+000	1.883263e+000	5.000000e+000	4.923476e+000	4.895877e+000
1.037665313189290e-002	0.000000e+000	1.883266e+000	5.000000e+000	4.961670e+000	4.895872e+000
1.037665356069615e-002	0.000000e+000	1.883268e+000	5.000000e+000	4.979680e+000	4.895868e+000
1.037665403798031e-002	0.000000e+000	1.883270e+000	5.000000e+000	4.989280e+000	4.895863e+000
1.037665471511452e-002	0.000000e+000	1.883274e+000	5.000000e+000	4.994148e+000	4.895855e+000
1.037665568342539e-002	0.000000e+000	1.883278e+000	5.000000e+000	4.995951e+000	4.895845e+000
1.037665706884485e-002	0.000000e+000	1.883285e+000	5.000000e+000	4.996573e+000	4.895830e+000
1.037665957548454e-002	0.000000e+000	1.883298e+000	5.000000e+000	4.997221e+000	4.895804e+000
1.037666458876392e-002	0.000000e+000	1.883323e+000	5.000000e+000	4.998076e+000	4.895753e+000
1.037667368534514e-002	0.000000e+000	1.883368e+000	5.000000e+000	4.998886e+000	4.895659e+000
1.037668329906909e-002	0.000000e+000	1.883417e+000	5.000000e+000	4.999356e+000	4.895560e+000
1.037669557215722e-002	0.000000e+000	1.883478e+000	5.000000e+000	4.999713e+000	4.895433e+000
1.037670856759855e-002	0.000000e+000	1.883543e+000	5.000000e+000	4.999881e+000	4.895300e+000
1.037671853205772e-002	0.000000e+000	1.883593e+000	5.000000e+000	4.999916e+000	4.895197e+000
1.037673170427822e-002	0.000000e+000	1.883659e+000	5.000000e+000	4.999933e+000	4.895061e+000
1.037675176980547e-002	0.000000e+000	1.883759e+000	5.000000e+000	4.999950e+000	4.894855e+000
1.037679190085997e-002	0.000000e+000	1.883960e+000	5.000000e+000	4.999969e+000	4.894440e+000
1.037683099635889e-002	0.000000e+000	1.884155e+000	5.000000e+000	4.999978e+000	4.894036e+000
1.037689465992859e-002	0.000000e+000	1.884473e+000	5.000000e+000	4.999986e+000	4.893376e+000
1.037696587284447e-002	0.000000e+000	1.884829e+000	5.000000e+000	4.999991e+000	4.892637e+000
1.037707387184741e-002	0.000000e+000	1.885369e+000	5.000000e+000	4.999995e+000	4.891513e+000
1.037719914843446e-002	0.000000e+000	1.885996e+000	5.000000e+000	4.999998e+000	4.890204e+000
1.037741125223426e-002	0.000000e+000	1.887056e+000	5.000000e+000	4.999994e+000	4.887981e+000
1.037744880292578e-002	0.000000e+000	1.887244e+000	5.000000e+000	4.999995e+000	4.887587e+000
1.037752390430882e-002	0.000000e+000	1.887619e+000	5.000000e+000	5.000000e+000	4.886795e+000
1.037767410707491e-002	0.000000e+000	1.888371e+000	5.000000e+000	5.000000e+000	4.885206e+000
1.037784823451442e-002	0.000000e+000	1.889241e+000	5.000000e+000	5.000000e+000	4.883356e+000
1.037806379301804e-002	0.000000e+000	1.890319e+000	5.000000e+000	5.000000e+000	4.881052e+000
1.037842987668283e-002	0.000000e+000	1.892149e+000	5.000000e+000	5.000000e+000	4.877105e+000
1.037904639281324e-002	0.000000e+000	1.895232e+000	5.000000e+000	5.000000e+000	4.870378e+000
1.037971178621964e-002	0.000000e+000	1.898559e+000	5.000000e+000	5.000000e+000	4.863019e+000
1.038024971600263e-002	0.000000e+000	1.901249e+000	5.000000e+000	5.000000e+000	4.856979e+000
1.038096763331398e-002	0.000000e+000	1.904838e+000	5.000000e+000	5.000000e+000	4.848783e+000
1.038196855442670e-002	0.000000e+000	1.909843e+000	5.000000e+000	5.000000e+000	4.837101e+000
1.038377896488257e-002	0.000000e+000	1.918895e+000	5.000000e+000	5.000000e+000	4.815344e+000
1.038599865799262e-002	0.000000e+000	1.929993e+000	5.000000e+000	5.000000e+000	4.787538e+000
1.038978964919966e-002	0.000000e+000	1.948948e+000	5.000000e+000	5.000000e+000	4.737340e+000
1.039470360046794e-002	0.000000e+000	1.973518e+000	5.000000e+000	5.000000e+000	4.667041e+000
1.040244769650835e-002	0.000000e+000	2.012239e+000	5.000000e+000	5.000000e+000	4.542629e+000
1.041275149616041e-002	0.000000e+000	2.063757e+000	5.000000e+000	5.000000e+000	4.334760e+000
1.042860482623123e-002	0.000000e+000	2.143024e+000	5.000000e+000	5.000000e+000	3.927330e+000
1.043124056417219e-002	0.000000e+000	2.156203e+000	5.000000e+000	5.000000e+000	3.819180e+000
1.043651204005411e-002	0.000000e+000	2.182560e+000	5.000000e+000	5.000000e+000	3.443963e+000
1.043826612435577e-002	0.000000e+000	2.191331e+000	5.000000e+000	5.000000e+000	3.138206e+000
1.043930560106493e-002	0.000000e+000	2.196528e+000	5.000000e+000	5.000000e+000	2.789946e+000
1.044041202440823e-002	0.000000e+000	2.202060e+000	5.000000e+000	5.000000e+000	2.342354e+000
1.044152966513211e-002	0.000000e+000	2.207648e+000	5.000000e+000	5.000000e+000	1.910788e+000
1.044256291082966e-002	0.000000e+000	2.212815e+000	5.000000e+000	5.000000e+000	1.560774e+000
1.044358191031541e-002	0.000000e+000	2.217910e+000	5.000000e+000	5.000000e+000	1.322230e+000
1.044490010180057e-002	0.000000e+000	2.224500e+000	5.000000e+000	5.000000e+000	1.165645e+000
1.044597747511626e-002	0.000000e+000	2.229887e+000	5.000000e+000	5.000000e+000	1.104265e+000
1.044725654521794e-002	0.000000e+000	2.236283e+000	5.000000e+000	5.000000e+000	1.059967e+000
1.044940674937184e-002	0.000000e+000	2.247034e+000	5.000000e+000	5.000000e+000	1.005976e+000
1.045370715767965e-002	0.000000e+000	2.268536e+000	5.000000e+000	5.000000e+000	9.262046e-001
1.045933157065850e-002	0.000000e+000	2.296658e+000	5.000000e+000	5.000000e+000	8.492323e-001
1.046941406307324e-002	0.000000e+000	2.347070e+000	5.000000e+000	5.000000e+000	7.485896e-001
1.048353558043965e-002	0.000000e+000	2.417678e+000	5.000000e+000	5.000000e+000	6.428141e-001
1.050000000000000e-002	0.000000e+000	2.500000e+000	5.000000e+000	5.000000e+000	5.434679e-001
1.050318115154759e-002	0.000000e+000	2.515906e+000	4.968188e+000	5.000000e+000	5.140024e-001
1.050742268694438e-002	0.000000e+000	2.537113e+000	4.925773e+000	5.000000e+000	4.777379e-001
1.051590575773795e-002	0.000000e+000	2.579529e+000	4.840942e+000	5.000000e+000	4.138591e-001
1.053263445085305e-002	0.000000e+000	2.663172e+000	4.673656e+000	5.000000e+000	3.120196e-001
1.055986984093511e-002	0.000000e+000	2.799349e+000	4.401301e+000	5.000000e+000	1.905308e-001
1.058693063137531e-002	0.000000e+000	2.934653e+000	4.130694e+000	5.000000e+000	1.150642e-001
1.061515500186957e-002	0.000000e+000	3.075775e+000	3.848450e+000	5.000000e+000	7.529306e-002
1.064188548029894e-002	0.000000e+000	3.209427e+000	3.581145e+000	5.000000e+000	5.585450e-002
1.066720077331227e-002	0.000000e+000	3.336004e+000	3.327992e+000	5.000000e+000	4.271219e-002
1.069106761642386e-002	0.000000e+000	3.455338e+000	3.089324e+000	5.000000e+000	3.266517e-002
1.073013011642386e-002	0.000000e+000	3.650651e+000	2.698699e+000	5.000000e+000	2.853650e-002
1.076604007090654e-002	0.000000e+000	3.830200e+000	2.339599e+000	5.000000e+000	4.541570e-002
1.077092288340654e-002	0.000000e+000	3.854614e+000	2.290771e+000	5.000000e+000	5.162047e-002
1.078068850840654e-002	0.000000e+000	3.903443e+000	2.193115e+000	5.000000e+000	6.945804e-002
1.078213161397659e-002	0.000000e+000	3.910658e+000	2.178684e+000	5.000000e+000	7.240568e-002
1.078501782511667e-002	0.000000e+000	3.925089e+000	2.149822e+000	5.000000e+000	7.884147e-002
1.078685356066769e-002	0.000000e+000	3.934268e+000	2.131464e+000	5.000000e+000	8.311026e-002
1.078827545987314e-002	0.000000e+000	3.941377e+000	2.117245e+000	5.000000e+000	8.654550e-002
1.078914820872213e-002	0.000000e+000	3.945741e+000	2.108518e+000	5.000000e+000	8.870874e-002
1.078972673308277e-002	0.000000e+000	3.948634e+000	2.102733e+000	5.000000e+000	9.016834e-002
1.079011271416651e-002	0.000000e+000	3.950564e+000	2.098873e+000	5.000000e+000	9.115371e-002
1.079043206077131e-002	0.000000e+000	3.952160e+000	2.095679e+000	5.000000e+000	9.197661e-002
1.079085176986820e-002	0.000000e+000	3.954259e+000	2.091482e+000	5.000000e+000	9.306513e-002
1.079091520814813e-002	0.000000e+000	3.954576e+000	2.090848e+000	5.000000e+000	9.323047e-002
1.079104208470801e-002	0.000000e+000	3.955210e+000	2.089579e+000	5.000000e+000	9.356245e-002
1.079114153976283e-002	0.000000e+000	3.955708e+000	2.088585e+000	5.000001e+000	9.382325e-002
1.079126110281277e-002	0.000000e+000	3.956306e+000	2.087389e+000	5.000005e+000	9.413759e-002
1.079138315516416e-002	0.000000e+000	3.956916e+000	2.086169e+000	5.000012e+000	9.445909e-002
1.079139489082067e-002	0.000000e+000	3.956975e+000	2.086051e+000	5.000014e+000	9.449005e-002
1.079141836213370e-002	0.000000e+000	3.957092e+000	2.085816e+000	5.000019e+000	9.455203e-002
1.079146530475977e-002	0.000000e+000	3.957326e+000	2.085347e+000	5.000034e+000	9.467608e-002
1.079150944107712e-002	0.000000e+000	3.957547e+000	2.084906e+000	5.000067e+000	9.479281e-002
1.079153815118670e-002	0.000000e+000	3.957691e+000	2.084619e+000	5.000132e+000	9.486880e-002
1.079155841834333e-002	0.000000e+000	3.957792e+000	2.084416e+000	5.000328e+000	9.492253e-002
1.079157288193243e-002	0.000000e+000	3.957865e+000	2.084271e+000	5.000898e+000	9.496097e-002
1.079158404706532e-002	0.000000e+000	3.957920e+000	2.084160e+000	5.002352e+000	9.499058e-002
1.079159298078903e-002	0.000000e+000	3.957965e+000	2.084070e+000	5.004869e+000	9.501412e-002
1.079159416087949e-002	0.000000e+000	3.957971e+000	2.084058e+000	5.005797e+000	9.501725e-002
1.079159652106042e-002	0.000000e+000	3.957983e+000	2.084035e+000	5.009069e+000	9.502356e-002
1.079159774401544e-002	0.000000e+000	3.957989e+000	2.084023e+000	5.010527e+000	9.502681e-002
1.079159874917417e-002	0.000000e+000	3.957994e+000	2.084013e+000	5.006108e+000	9.502945e-002
1.079159970456675e-002	0.000000e+000	3.957999e+000	2.084003e+000	4.969687e+000	9.503195e-002
1.079160083001815e-002	0.000000e+000	3.958004e+000	2.083992e+000	4.810902e+000	9.503490e-002
1.079160203343091e-002	0.000000e+000	3.958010e+000	2.083980e+000	4.138937e+000	9.503809e-002
1.079160331383060e-002	0.000000e+000	3.958017e+000	2.083967e+000	2.283701e+000	9.504151e-002
1.079160335491006e-002	0.000000e+000	3.958017e+000	2.083966e+000	1.851352e+000	9.504163e-002
1.079160336517993e-002	0.000000e+000	3.958017e+000	2.083966e+000	1.655096e+000	9.504166e-002
1.079160339085459e-002	0.000000e+000	3.958017e+000	2.083966e+000	1.162768e+000	9.504172e-002
1.079160339213832e-002	0.000000e+000	3.958017e+000	2.083966e+000	1.138300e+000	9.504172e-002
1.079160339470579e-002	0.000000e+000	3.958017e+000	2.083966e+000	1.092764e+000	9.504173e-002
1.079160339984072e-002	0.000000e+000	3.958017e+000	2.083966e+000	1.012570e+000	9.504174e-002
1.079160340112446e-002	0.000000e+000	3.958017e+000	2.083966e+000	9.964157e-001	9.504175e-002
1.079160340369192e-002	0.000000e+000	3.958017e+000	2.083966e+000	9.729406e-001	9.504175e-002
1.079160340882686e-002	0.000000e+000	3.958017e+000	2.083966e+000	9.389682e-001	9.504177e-002
1.079160341909672e-002	0.000000e+000	3.958017e+000	2.083966e+000	8.925247e-001	9.504180e-002
1.079160343963645e-002	0.000000e+000	3.958017e+000	2.083966e+000	8.301060e-001	9.504185e-002
1.079160348071591e-002	0.000000e+000	3.958017e+000	2.083965e+000	7.474572e-001	9.504196e-002
1.079160356287483e-002	0.000000e+000	3.958018e+000	2.083964e+000	6.434632e-001	9.504218e-002
1.079160372719268e-002	0.000000e+000	3.958019e+000	2.083963e+000	5.232212e-001	9.504263e-002
1.079160405582837e-002	0.000000e+000	3.958020e+000	2.083959e+000	3.874702e-001	9.504353e-002
1.079160443844133e-002	0.000000e+000	3.958022e+000	2.083956e+000	2.930652e-001	9.504458e-002
1.079160504894322e-002	0.000000e+000	3.958025e+000	2.083950e+000	2.056574e-001	9.504624e-002
1.079160626994698e-002	0.000000e+000	3.958031e+000	2.083937e+000	1.113803e-001	9.504952e-002
1.079160805874888e-002	0.000000e+000	3.958040e+000	2.083920e+000	4.509824e-002	9.505424e-002
1.079160989672309e-002	0.000000e+000	3.958050e+000	2.083901e+000	1.758952e-002	9.505904e-002
1.079161216729999e-002	0.000000e+000	3.958061e+000	2.083878e+000	6.560818e-003	9.506498e-002
1.079161426787732e-002	0.000000e+000	3.958071e+000	2.083857e+000	3.518854e-003	9.507050e-002
1.079161562150395e-002	0.000000e+000	3.958078e+000	2.083844e+000	2.759982e-003	9.507407e-002
1.079161708179890e-002	0.000000e+000	3.958085e+000	2.083829e+000	2.161923e-003	9.507788e-002
1.079161876411083e-002	0.000000e+000	3.958094e+000	2.083812e+000	1.620798e-003	9.508210e-002
1.079162148830684e-002	0.000000e+000	3.958107e+000	2.083785e+000	9.222983e-004	9.508893e-002
1.079162446902877e-002	0.000000e+000	3.958122e+000	2.083755e+000	4.178208e-004	9.509699e-002
1.079162788222736e-002	0.000000e+000	3.958139e+000	2.083721e+000	1.409149e-004	9.510656e-002
1.079163165750665e-002	0.000000e+000	3.958158e+000	2.083683e+000	4.766921e-005	9.511685e-002
1.079163558597340e-002	0.000000e+000	3.958178e+000	2.083644e+000	2.806761e-005	9.512730e-002
1.079164132278186e-002	0.000000e+000	3.958207e+000	2.083587e+000	1.915216e-005	9.514253e-002
1.079165279639878e-002	0.000000e+000	3.958264e+000	2.083472e+000	9.695286e-006	9.517297e-002
1.079167574363262e-002	0.000000e+000	3.958379e+000	2.083243e+000	3.105675e-006	9.523387e-002
1.079170287570754e-002	0.000000e+000	3.958514e+000	2.082971e+000	9.034584e-007	9.530592e-002
1.079174173017170e-002	0.000000e+000	3.958709e+000	2.082583e+000	3.090571e-007	9.540921e-002
1.079179831586132e-002	0.000000e+000	3.958992e+000	2.082017e+000	7.336861e-008	9.555984e-002
1.079189922761003e-002	0.000000e+000	3.959496e+000	2.081008e+000	4.949457e-008	9.582900e-002
1.079204945739929e-002	0.000000e+000	3.960247e+000	2.079505e+000	2.230844e-008	9.623089e-002
1.079227003883464e-002	0.000000e+000	3.961350e+000	2.077300e+000	2.844387e-008	9.682352e-002
