time	V(ax)	V(bx)	V(outx)
0.000000000000000e+000	0.000000e+000	0.000000e+000	4.407206e-008
1.000000000000000e-002	0.000000e+000	0.000000e+000	4.407206e-008
1.200390625000000e-002	0.000000e+000	5.000000e+000	5.000000e+000
2.000000000000000e-002	0.000000e+000	5.000000e+000	5.000000e+000
2.015078125000105e-002	3.769531e-001	5.000000e+000	5.000000e+000
2.018984375000105e-002	4.746094e-001	5.000000e+000	5.000000e+000
2.022890625000105e-002	5.722656e-001	5.000000e+000	5.000000e+000
2.026796875000105e-002	6.699219e-001	5.000000e+000	5.000000e+000
2.030703125000105e-002	7.675781e-001	5.000000e+000	5.000000e+000
2.034609375000105e-002	8.652344e-001	5.000000e+000	5.000000e+000
2.038515625000105e-002	9.628906e-001	5.000000e+000	5.000000e+000
2.042421875000105e-002	1.060547e+000	5.000000e+000	5.000000e+000
2.046328125000105e-002	1.158203e+000	5.000000e+000	5.000000e+000
2.050234375000105e-002	1.255859e+000	5.000000e+000	5.000000e+000
2.054140625000105e-002	1.353516e+000	5.000000e+000	5.000000e+000
2.058046875000105e-002	1.451172e+000	5.000000e+000	5.000000e+000
2.061953125000104e-002	1.548828e+000	5.000000e+000	5.000000e+000
2.065859375000104e-002	1.646484e+000	5.000000e+000	5.000000e+000
2.069765625000104e-002	1.744141e+000	5.000000e+000	4.992270e+000
2.073671875000104e-002	1.841797e+000	5.000000e+000	4.925444e+000
2.077578125000104e-002	1.939453e+000	5.000000e+000	4.739670e+000
2.081484375000104e-002	2.037109e+000	5.000000e+000	4.421854e+000
2.085390625000104e-002	2.134766e+000	5.000000e+000	3.879763e+000
2.087530047974929e-002	2.188251e+000	5.000000e+000	3.368426e+000
2.087593342123936e-002	2.189834e+000	5.000000e+000	3.296059e+000
2.087677734322612e-002	2.191943e+000	5.000000e+000	3.157415e+000
2.087809420112563e-002	2.195235e+000	5.000000e+000	2.895298e+000
2.087923571766890e-002	2.198089e+000	5.000000e+000	2.658444e+000
2.088061642198751e-002	2.201541e+000	5.000000e+000	2.378698e+000
2.088240371259657e-002	2.206009e+000	5.000000e+000	2.033672e+000
2.088525754331495e-002	2.213144e+000	5.000000e+000	1.554004e+000
2.088760874898622e-002	2.219022e+000	5.000000e+000	1.290216e+000
2.089026690712950e-002	2.225667e+000	5.000000e+000	1.149024e+000
2.089241443107828e-002	2.231036e+000	5.000000e+000	1.094907e+000
2.089512182336747e-002	2.237805e+000	5.000000e+000	1.051246e+000
2.090035183213111e-002	2.250880e+000	5.000000e+000	9.895600e-001
2.090911049378300e-002	2.272776e+000	5.000000e+000	9.131591e-001
2.092256165875011e-002	2.306404e+000	5.000000e+000	8.270988e-001
2.094341468228308e-002	2.358537e+000	5.000000e+000	7.293531e-001
2.097570459251219e-002	2.439261e+000	5.000000e+000	6.171971e-001
2.101476709251219e-002	2.536918e+000	5.000000e+000	5.138724e-001
2.105382959251219e-002	2.634574e+000	5.000000e+000	4.326074e-001
2.109289209251219e-002	2.732230e+000	5.000000e+000	3.662261e-001
2.113195459251219e-002	2.829886e+000	5.000000e+000	3.102856e-001
2.117101709251219e-002	2.927543e+000	5.000000e+000	2.622910e-001
2.121007959251219e-002	3.025199e+000	5.000000e+000	2.206249e-001
2.124914209251218e-002	3.122855e+000	5.000000e+000	1.841797e-001
2.128820459251218e-002	3.220511e+000	5.000000e+000	1.521987e-001
2.132726709251218e-002	3.318168e+000	5.000000e+000	1.241309e-001
2.136632959251218e-002	3.415824e+000	5.000000e+000	9.956568e-002
2.140539209251218e-002	3.513480e+000	5.000000e+000	7.819201e-002
2.144445459251218e-002	3.611136e+000	5.000000e+000	5.977141e-002
2.148351709251218e-002	3.708793e+000	5.000000e+000	4.411880e-002
2.152257959251218e-002	3.806449e+000	5.000000e+000	3.108833e-002
2.156164209251218e-002	3.904105e+000	5.000000e+000	2.055963e-002
2.160070459251218e-002	4.001761e+000	5.000000e+000	1.242377e-002
2.163976709251218e-002	4.099418e+000	5.000000e+000	6.565610e-003
2.167882959251218e-002	4.197074e+000	5.000000e+000	2.822041e-003
2.171789209251217e-002	4.294730e+000	5.000000e+000	8.807196e-004
2.175695459251217e-002	4.392386e+000	5.000000e+000	1.699085e-004
2.179601709251217e-002	4.490043e+000	5.000000e+000	1.721209e-005
2.183507959251217e-002	4.587699e+000	5.000000e+000	1.395051e-006
2.200217216850243e-002	5.000000e+000	5.000000e+000	2.279695e-007
3.200215755528495e-002	5.000000e+000	4.994606e+000	-4.971634e-008
3.218407171383358e-002	5.000000e+000	4.539821e+000	2.763886e-006
3.222313421383358e-002	5.000000e+000	4.442164e+000	3.731535e-005
3.226219671383358e-002	5.000000e+000	4.344508e+000	2.673664e-004
3.230125921383358e-002	5.000000e+000	4.246852e+000	1.069246e-003
3.234032171383358e-002	5.000000e+000	4.149196e+000	2.873250e-003
3.237938421383358e-002	5.000000e+000	4.051539e+000	5.959046e-003
3.241844671383358e-002	5.000000e+000	3.953883e+000	1.045877e-002
3.245750921383358e-002	5.000000e+000	3.856227e+000	1.644223e-002
3.249657171383358e-002	5.000000e+000	3.758571e+000	2.395977e-002
3.253563421383358e-002	5.000000e+000	3.660914e+000	3.305996e-002
3.257469671383358e-002	5.000000e+000	3.563258e+000	4.379785e-002
3.261375921383358e-002	5.000000e+000	3.465602e+000	5.624181e-002
3.265282171383357e-002	5.000000e+000	3.367946e+000	7.048035e-002
3.269188421383357e-002	5.000000e+000	3.270289e+000	8.662903e-002
3.273094671383357e-002	5.000000e+000	3.172633e+000	1.048395e-001
3.277000921383357e-002	5.000000e+000	3.074977e+000	1.253118e-001
3.280907171383357e-002	5.000000e+000	2.977321e+000	1.483124e-001
3.284813421383357e-002	5.000000e+000	2.879664e+000	1.742014e-001
3.288719671383357e-002	5.000000e+000	2.782008e+000	2.034753e-001
3.292625921383357e-002	5.000000e+000	2.684352e+000	2.368392e-001
3.296532171383357e-002	5.000000e+000	2.586696e+000	2.753342e-001
3.300438421383357e-002	5.000000e+000	2.489039e+000	3.205870e-001
3.304344671383357e-002	5.000000e+000	2.391383e+000	3.754023e-001
3.308250921383357e-002	5.000000e+000	2.293727e+000	4.452537e-001
3.312157171383356e-002	5.000000e+000	2.196071e+000	5.447075e-001
3.316063421383356e-002	5.000000e+000	2.098414e+000	9.416415e-001
3.318981428422938e-002	5.000000e+000	2.025464e+000	2.028891e+000
3.320922732955520e-002	5.000000e+000	1.976932e+000	3.186030e+000
3.322102927826545e-002	5.000000e+000	1.947427e+000	3.629769e+000
3.323180276155904e-002	5.000000e+000	1.920493e+000	3.753670e+000
3.324521537451585e-002	5.000000e+000	1.886962e+000	3.868986e+000
3.327204060042947e-002	5.000000e+000	1.819898e+000	4.045898e+000
3.331110310042947e-002	5.000000e+000	1.722242e+000	4.245489e+000
3.335016560042946e-002	5.000000e+000	1.624586e+000	4.401688e+000
3.338922810042946e-002	5.000000e+000	1.526930e+000	4.527155e+000
3.342829060042946e-002	5.000000e+000	1.429273e+000	4.630989e+000
3.346735310042946e-002	5.000000e+000	1.331617e+000	4.718002e+000
3.350641560042946e-002	5.000000e+000	1.233961e+000	4.790997e+000
3.354547810042946e-002	5.000000e+000	1.136305e+000	4.851652e+000
3.358454060042946e-002	5.000000e+000	1.038648e+000	4.900983e+000
3.362360310042946e-002	5.000000e+000	9.409922e-001	4.939567e+000
3.366266560042946e-002	5.000000e+000	8.433360e-001	4.967750e+000
3.370172810042946e-002	5.000000e+000	7.456797e-001	4.985993e+000
3.374079060042946e-002	5.000000e+000	6.480235e-001	4.995545e+000
3.377985310042946e-002	5.000000e+000	5.503672e-001	4.999092e+000
3.381891560042945e-002	5.000000e+000	4.527110e-001	4.999891e+000
3.385797810042945e-002	5.000000e+000	3.550547e-001	4.999990e+000
3.400000000000000e-002	5.000000e+000	0.000000e+000	5.000002e+000
3.765234374999992e-002	5.000000e+000	0.000000e+000	5.000000e+000
3.999609374999987e-002	5.000000e+000	0.000000e+000	5.000000e+000
4.000000000000000e-002	5.000000e+000	0.000000e+000	5.000000e+000
